"$e_r []","TraceW [mm]","Freq [GHz]","re(Zin) []","im(Zin) []"
4.2,0.15,2,42.0965059819982,-13.927181922279
4.2,0.15,2.0025,42.0674469992557,-13.9351497485285
4.2,0.15,2.005,42.0383466433968,-13.9430374163889
4.2,0.15,2.0075,42.0092052572373,-13.9508445249915
4.2,0.15,2.01,41.9800231885834,-13.9585706745552
4.2,0.15,2.0125,41.9508007902491,-13.9662154664471
4.2,0.15,2.015,41.9215384200723,-13.9737785032422
4.2,0.15,2.0175,41.8922364409308,-13.9812593887849
4.2,0.15,2.02,41.8628952207575,-13.98865772825
4.2,0.15,2.0225,41.8335151325541,-13.9959731282054
4.2,0.15,2.025,41.8040965544055,-14.0032051966738
4.2,0.15,2.0275,41.7746398694918,-14.0103535431966
4.2,0.15,2.03,41.7451454661006,-14.0174177788969
4.2,0.15,2.0325,41.7156137376384,-14.024397516544
4.2,0.15,2.035,41.6860450826408,-14.0312923706177
4.2,0.15,2.0375,41.6564399047821,-14.0381019573734
4.2,0.15,2.04,41.6267986128838,-14.0448258949076
4.2,0.15,2.0425,41.5971216209233,-14.051463803224
4.2,0.15,2.045,41.5674093480402,-14.0580153042993
4.2,0.15,2.0475,41.5376622185426,-14.0644800221508
4.2,0.15,2.05,41.5078806619128,-14.0708575829028
4.2,0.15,2.0525,41.4780651128114,-14.0771476148547
4.2,0.15,2.055,41.4482160110809,-14.0833497485484
4.2,0.15,2.0575,41.4183338017481,-14.0894636168373
4.2,0.15,2.06,41.3884189350263,-14.095488854954
4.2,0.15,2.0625,41.3584718663154,-14.10142510058
4.2,0.15,2.065,41.3284930562022,-14.1072719939146
4.2,0.15,2.0675,41.2984829704587,-14.1130291777443
4.2,0.15,2.07,41.2684420800406,-14.1186962975128
4.2,0.15,2.0725,41.2383708610836,-14.1242730013908
4.2,0.15,2.075,41.2082697948997,-14.1297589403465
4.2,0.15,2.0775,41.1781393679718,-14.1351537682156
4.2,0.15,2.08,41.1479800719478,-14.1404571417725
4.2,0.15,2.0825,41.1177924036334,-14.1456687208006
4.2,0.15,2.085,41.0875768649839,-14.1507881681635
4.2,0.15,2.0875,41.0573339630953,-14.155815149876
4.2,0.15,2.09,41.0270642101937,-14.1607493351752
4.2,0.15,2.0925,40.9967681236244,-14.1655903965917
4.2,0.15,2.095,40.9664462258394,-14.1703380100211
4.2,0.15,2.0975,40.9360990443843,-14.1749918547948
4.2,0.15,2.1,40.9057271118836,-14.179551613752
4.2,0.15,2.1025,40.8753309660256,-14.1840169733104
4.2,0.15,2.105,40.8449111495457,-14.1883876235377
4.2,0.15,2.1075,40.8144682102088,-14.192663258223
4.2,0.15,2.11,40.7840027007907,-14.1968435749474
4.2,0.15,2.1125,40.7535151790586,-14.2009282751552
4.2,0.15,2.115,40.72300620775,-14.2049170642248
4.2,0.15,2.1175,40.6924763545512,-14.2088096515392
4.2,0.15,2.12,40.6619261920739,-14.2126057505566
4.2,0.15,2.1225,40.631356297832,-14.2163050788802
4.2,0.15,2.125,40.6007672542156,-14.2199073583287
4.2,0.15,2.1275,40.5701596484659,-14.2234123150057
4.2,0.15,2.13,40.5395340726473,-14.2268196793687
4.2,0.15,2.1325,40.5088911236194,-14.2301291862989
4.2,0.15,2.135,40.478231403008,-14.2333405751689
4.2,0.15,2.1375,40.4475555171743,-14.2364535899116
4.2,0.15,2.14,40.4168640771842,-14.2394679790877
4.2,0.15,2.1425,40.3861576987755,-14.2423834959532
4.2,0.15,2.145,40.3554370023244,-14.2451998985258
4.2,0.15,2.1475,40.3247026128115,-14.2479169496516
4.2,0.15,2.15,40.2939551597863,-14.2505344170709
4.2,0.15,2.1525,40.2631952773308,-14.253052073483
4.2,0.15,2.155,40.2324236040219,-14.2554696966107
4.2,0.15,2.1575,40.2016407828936,-14.2577870692646
4.2,0.15,2.16,40.1708474613974,-14.260003979406
4.2,0.15,2.1625,40.1400442913619,-14.2621202202093
4.2,0.15,2.165,40.1092319289526,-14.2641355901237
4.2,0.15,2.1675,40.0784110346289,-14.2660498929342
4.2,0.15,2.17,40.0475822731016,-14.2678629378219
4.2,0.15,2.1725,40.0167463132896,-14.2695745394228
4.2,0.15,2.175,39.9859038282748,-14.2711845178865
4.2,0.15,2.1775,39.955055495257,-14.2726926989332
4.2,0.15,2.18,39.9242019955076,-14.274098913911
4.2,0.15,2.1825,39.893344014323,-14.2754029998504
4.2,0.15,2.185,39.8624822409768,-14.2766047995194
4.2,0.15,2.1875,39.8316173686712,-14.2777041614767
4.2,0.15,2.19,39.8007500944884,-14.278700940124
4.2,0.15,2.1925,39.7698811193408,-14.2795949957571
4.2,0.15,2.195,39.7390111479205,-14.2803861946161
4.2,0.15,2.1975,39.7081408886489,-14.2810744089341
4.2,0.15,2.2,39.6772710536249,-14.2816595169847
4.2,0.15,2.2025,39.6464023585732,-14.2821414031285
4.2,0.15,2.205,39.6155355227918,-14.2825199578579
4.2,0.15,2.2075,39.5846712690995,-14.2827950778409
4.2,0.15,2.21,39.5538103237821,-14.2829666659632
4.2,0.15,2.2125,39.5229534165397,-14.2830346313696
4.2,0.15,2.215,39.4921012804322,-14.2829988895028
4.2,0.15,2.2175,39.4612546518254,-14.2828593621417
4.2,0.15,2.22,39.4304142703371,-14.2826159774379
4.2,0.15,2.2225,39.399580878782,-14.2822686699503
4.2,0.15,2.225,39.3687552231177,-14.2818173806789
4.2,0.15,2.2275,39.3379380523898,-14.2812620570961
4.2,0.15,2.23,39.3071301186775,-14.2806026531769
4.2,0.15,2.2325,39.2763321770391,-14.2798391294273
4.2,0.15,2.235,39.2455449854573,-14.278971452911
4.2,0.15,2.2375,39.2147693047854,-14.2779995972741
4.2,0.15,2.24,39.1840058986934,-14.2769235427685
4.2,0.15,2.2425,39.1532555336137,-14.275743276273
4.2,0.15,2.245,39.1225189786888,-14.274458791313
4.2,0.15,2.2475,39.0917970057178,-14.2730700880775
4.2,0.15,2.25,39.0610903891044,-14.2715771734356
4.2,0.15,2.2525,39.0303999058055,-14.2699800609493
4.2,0.15,2.255,38.9997263352796,-14.268278770886
4.2,0.15,2.2575,38.9690704594375,-14.2664733302276
4.2,0.15,2.26,38.938433062592,-14.2645637726785
4.2,0.15,2.2625,38.9078149314104,-14.2625501386711
4.2,0.15,2.265,38.8772168548666,-14.2604324753692
4.2,0.15,2.2675,38.8466396241947,-14.2582108366694
4.2,0.15,2.27,38.8160840328444,-14.2558852832002
4.2,0.15,2.2725,38.7855508764372,-14.2534558823189
4.2,0.15,2.275,38.7550409527235,-14.2509227081066
4.2,0.15,2.2775,38.7245550615427,-14.2482858413603
4.2,0.15,2.28,38.6940940047832,-14.2455453695833
4.2,0.15,2.2825,38.6636585863454,-14.2427013869728
4.2,0.15,2.285,38.6332496121058,-14.2397539944059
4.2,0.15,2.2875,38.6028678898839,-14.2367032994221
4.2,0.15,2.29,38.57251422941,-14.2335494162043
4.2,0.15,2.2925,38.5421894422961,-14.2302924655573
4.2,0.15,2.295,38.5118943420091,-14.2269325748831
4.2,0.15,2.2975,38.4816297438462,-14.2234698781548
4.2,0.15,2.3,38.4513964649128,-14.2199045158867
4.2,0.15,2.3025,38.4211953241039,-14.2162366351033
4.2,0.15,2.305,38.3910271420874,-14.2124663893045
4.2,0.15,2.3075,38.360892741291,-14.2085939384286
4.2,0.15,2.31,38.3307929458929,-14.2046194488132
4.2,0.15,2.3125,38.3007285818144,-14.2005430931525
4.2,0.15,2.315,38.2707004767179,-14.1963650504528
4.2,0.15,2.3175,38.2407094600071,-14.1920855059846
4.2,0.15,2.32,38.2107563628317,-14.1877046512325
4.2,0.15,2.3225,38.1808420180968,-14.1832226838417
4.2,0.15,2.325,38.1509672604756,-14.1786398075627
4.2,0.15,2.3275,38.1211329264273,-14.1739562321921
4.2,0.15,2.33,38.0913398542194,-14.1691721735112
4.2,0.15,2.3325,38.0615888839551,-14.1642878532218
4.2,0.15,2.335,38.0318808576061,-14.1593034988784
4.2,0.15,2.3375,38.0022166190502,-14.1542193438186
4.2,0.15,2.34,37.9725970141151,-14.1490356270891
4.2,0.15,2.3425,37.9430228906279,-14.1437525933704
4.2,0.15,2.345,37.913495098471,-14.138370492897
4.2,0.15,2.3475,37.8840144896439,-14.1328895813756
4.2,0.15,2.35,37.8545819183326,-14.1273101198992
4.2,0.15,2.3525,37.825198240985,-14.1216323748595
4.2,0.15,2.355,37.795864316395,-14.1158566178551
4.2,0.15,2.3575,37.7665810057925,-14.1099831255966
4.2,0.15,2.36,37.7373491729435,-14.1040121798089
4.2,0.15,2.3625,37.7081696842565,-14.0979440671305
4.2,0.15,2.365,37.6790434088996,-14.0917790790085
4.2,0.15,2.3675,37.6499712189248,-14.0855175115917
4.2,0.15,2.37,37.6209539894036,-14.0791596656192
4.2,0.15,2.3725,37.5919925985712,-14.0727058463062
4.2,0.15,2.375,37.5630879279817,-14.0661563632266
4.2,0.15,2.3775,37.5342408626746,-14.0595115301914
4.2,0.15,2.38,37.5054522913511,-14.0527716651246
4.2,0.15,2.3825,37.4767231065642,-14.0459370899345
4.2,0.15,2.385,37.4480542049196,-14.0390081303825
4.2,0.15,2.3875,37.4194464872904,-14.0319851159477
4.2,0.15,2.39,37.3909008590444,-14.0248683796875
4.2,0.15,2.3925,37.362418230287,-14.0176582580957
4.2,0.15,2.395,37.3339995161171,-14.0103550909549
4.2,0.15,2.3975,37.3056456368996,-14.0029592211876
4.2,0.15,2.4,37.2773575185537,-13.9954709947007
4.2,0.15,2.4025,37.2491360928576,-13.9878907602283
4.2,0.15,2.405,37.2209822977719,-13.9802188691693
4.2,0.15,2.4075,37.1928970777799,-13.972455675421
4.2,0.15,2.41,37.1648813842491,-13.9646015352088
4.2,0.15,2.4125,37.1369361758113,-13.956656806912
4.2,0.15,2.415,37.1090624187647,-13.9486218508844
4.2,0.15,2.4175,37.0812610874983,-13.9404970292715
4.2,0.15,2.42,37.0535331649391,-13.9322827058223
4.2,0.15,2.4225,37.0258796430245,-13.9239792456973
4.2,0.15,2.425,36.998301523199,-13.9155870152715
4.2,0.15,2.4275,36.9707998169396,-13.9071063819325
4.2,0.15,2.43,36.9433755463078,-13.8985377138742
4.2,0.15,2.4325,36.9160297445319,-13.8898813798849
4.2,0.15,2.435,36.8887634566208,-13.8811377491306
4.2,0.15,2.4375,36.8615777400101,-13.8723071909336
4.2,0.15,2.44,36.8344736652424,-13.8633900745446
4.2,0.15,2.4425,36.8074523166844,-13.8543867689102
4.2,0.15,2.445,36.7805147932816,-13.8452976424346
4.2,0.15,2.4475,36.7536622093537,-13.8361230627353
4.2,0.15,2.45,36.7268956954316,-13.8268633963931
4.2,0.15,2.4525,36.7002163991394,-13.8175190086957
4.2,0.15,2.455,36.673625486123,-13.8080902633752
4.2,0.15,2.4575,36.6471241410291,-13.7985775223391
4.2,0.15,2.46,36.620713568535,-13.7889811453951
4.2,0.15,2.4625,36.5943949944352,-13.7793014899676
4.2,0.15,2.465,36.5681696667854,-13.7695389108094
4.2,0.15,2.4675,36.5420388571082,-13.7596937597035
4.2,0.15,2.47,36.5160038616645,-13.74976638516
4.2,0.15,2.4725,36.4900660027935,-13.7397571321029
4.2,0.15,2.475,36.4642266303256,-13.7296663415509
4.2,0.15,2.4775,36.4384871230737,-13.7194943502883
4.2,0.15,2.48,36.4128488904049,-13.7092414905286
4.2,0.15,2.4825,36.3873133739008,-13.6989080895688
4.2,0.15,2.485,36.361882049109,-13.6884944694342
4.2,0.15,2.4875,36.3365564273932,-13.678000946515
4.2,0.15,2.49,36.3113380578872,-13.6674278311921
4.2,0.15,2.4925,36.2862285295597,-13.6567754274534
4.2,0.15,2.495,36.2612294733965,-13.6460440325001
4.2,0.15,2.4975,36.2363425647085,-13.6352339363414
4.2,0.15,2.5,36.2115695255728,-13.6243454213797
4.2,0.15,2.5025,36.1869121274161,-13.6133787619835
4.2,0.15,2.505,36.1623721937499,-13.6023342240486
4.2,0.15,2.5075,36.1379516030669,-13.5912120645484
4.2,0.15,2.51,36.1136522919112,-13.5800125310709
4.2,0.15,2.5125,36.0894762581318,-13.5687358613436
4.2,0.15,2.515,36.0654255643349,-13.5573822827456
4.2,0.15,2.5175,36.0415023415463,-13.5459520118063
4.2,0.15,2.52,36.0177087931002,-13.534445253691
4.2,0.15,2.5225,35.9940471987705,-13.5228622016724
4.2,0.15,2.525,35.9705199191618,-13.5112030365883
4.2,0.15,2.5275,35.9471294003791,-13.4994679262862
4.2,0.15,2.53,35.9238781789967,-13.4876570250518
4.2,0.15,2.5325,35.9007688873494,-13.4757704730256
4.2,0.15,2.535,35.877804259169,-13.4638083956038
4.2,0.15,2.5375,35.8549871355939,-13.4517709028254
4.2,0.15,2.54,35.8323204715796,-13.4396580887465
4.2,0.15,2.5425,35.8098073427421,-13.4274700308004
4.2,0.15,2.545,35.7874509526676,-13.4152067891453
4.2,0.15,2.5475,35.7652546407272,-13.4028684059999
4.2,0.15,2.55,35.743221890436,-13.3904549049684
4.2,0.15,2.5525,35.7213563384018,-13.3779662903558
4.2,0.15,2.555,35.6996617839129,-13.3654025464748
4.2,0.15,2.5575,35.6781421992172,-13.3527636369475
4.2,0.15,2.56,35.6568017405528,-13.3400495040031
4.2,0.15,2.5625,35.6356447599937,-13.3272600677755
4.2,0.15,2.565,35.6146758181818,-13.3143952256038
4.2,0.15,2.5675,35.593899698024,-13.3014548513416
4.2,0.15,2.57,35.5733214194388,-13.2884387946778
4.2,0.15,2.5725,35.5529462552498,-13.2753468804784
4.2,0.15,2.575,35.5327797483288,-13.2621789081539
4.2,0.15,2.5775,35.5128277301057,-13.2489346510641
4.2,0.15,2.58,35.4930963405738,-13.2356138559687
4.2,0.15,2.5825,35.4735920499326,-13.2222162425375
4.2,0.15,2.585,35.4543216820255,-13.2087415029354
4.2,0.15,2.5875,35.4352924397503,-13.1951893014993
4.2,0.15,2.59,35.4165119326361,-13.181559274528
4.2,0.15,2.5925,35.3979882068064,-13.1678510302107
4.2,0.15,2.595,35.3797297775707,-13.1540641487221
4.2,0.15,2.5975,35.3617456649184,-13.1401981825199
4.2,0.15,2.6,35.3440454322188,-13.1262526568844
4.2,0.15,2.6025,35.3266392284704,-13.11222707075
4.2,0.15,2.605,35.3095378344828,-13.0981208978846
4.2,0.15,2.6075,35.2927527134243,-13.0839335884843
4.2,0.15,2.61,35.2762960662225,-13.0696645712653
4.2,0.15,2.6125,35.2601808923689,-13.0553132561459
4.2,0.15,2.615,35.2444210567478,-13.0408790376329
4.2,0.15,2.6175,35.2290313631986,-13.0263612990451
4.2,0.15,2.62,35.2140276356087,-13.0117594177349
4.2,0.15,2.6225,35.1994268074511,-12.9970727714966
4.2,0.15,2.625,35.185247020804,-12.9823007463889
4.2,0.15,2.6275,35.1715077360387,-12.9674427462428
4.2,0.15,2.63,35.1582298535349,-12.9524982041793
4.2,0.15,2.6325,35.1454358489809,-12.9374665965265
4.2,0.15,2.635,35.1331499240502,-12.9223474596066
4.2,0.15,2.6375,35.1213981745191,-12.9071404099544
4.2,0.15,2.64,35.1102087782115,-12.8918451686538
4.2,0.15,2.6425,35.0996122055334,-12.8764615906152
4.2,0.15,2.645,35.089641455804,-12.8609896998004
4.2,0.15,2.6475,35.08033232312,-12.8454297316146
4.2,0.15,2.65,35.0717236961114,-12.8297821839588
4.2,0.15,2.6525,35.0638578966945,-12.8140478787699
4.2,0.15,2.655,35.0567810638132,-12.7982280362927
4.2,0.15,2.6575,35.0505435892285,-12.7823243648519
4.2,0.15,2.66,35.0452006136894,-12.7663391695491
4.2,0.15,2.6625,35.0408125933686,-12.7502754841344
4.2,0.15,2.665,35.0374459483063,-12.7341372313546
4.2,0.15,2.6675,35.035173806877,-12.7179294184095
4.2,0.15,2.67,35.0340768630563,-12.7016583758567
4.2,0.15,2.6725,35.0342443666451,-12.6853320504916
4.2,0.15,2.675,35.0357752707609,-12.6689603655641
4.2,0.15,2.6775,35.0387795660226,-12.6525556653609
4.2,0.15,2.68,35.0433798371952,-12.6361332659872
4.2,0.15,2.6825,35.0497130859243,-12.6197121404837
4.2,0.15,2.685,35.0579328730186,-12.6033157747545
4.2,0.15,2.6875,35.0682118460289,-12.5869732418792
4.2,0.15,2.69,35.0807447333353,-12.5707205572643
4.2,0.15,2.6925,35.0957519054539,-12.5546023971741
4.2,0.15,2.695,35.1134836289609,-12.5386742905246
4.2,0.15,2.6975,35.1342251697648,-12.5230054313211
4.2,0.15,2.7,35.158302942314,-12.5076823110123
4.2,0.15,2.7025,35.1860919520772,-12.4928134424611
4.2,0.15,2.705,35.2180248432263,-12.4785355493095
4.2,0.15,2.7075,35.2546029454196,-12.465021739776
4.2,0.15,2.71,35.2964098169082,-12.4524923928164
4.2,0.15,2.7125,35.3441279098056,-12.4412297882287
4.2,0.15,2.715,35.3985591397704,-12.4315979586866
4.2,0.15,2.7175,35.4606503245794,-12.4240699056754
4.2,0.15,2.72,35.5315246507648,-12.4192653208511
4.2,0.15,2.7225,35.6125204952388,-12.4180034774386
4.2,0.15,2.725,35.7052389728505,-12.4213783052661
4.2,0.15,2.7275,35.8116012803749,-12.430866327519
4.2,0.15,2.73,35.9339157756742,-12.4484839121444
4.2,0.15,2.7325,36.0749517089375,-12.4770194591188
4.2,0.15,2.735,36.2380093165658,-12.5203807333318
4.2,0.15,2.7375,36.4269596167557,-12.5841205878893
4.2,0.15,2.74,36.646190867275,-12.6762396889075
4.2,0.15,2.7425,36.9003186922779,-12.8084152112539
4.2,0.15,2.745,37.193342854547,-12.9978618918646
4.2,0.15,2.7475,37.5265622527328,-13.2700438608634
4.2,0.15,2.75,37.8938063227184,-13.6622156337763
4.2,0.15,2.7525,38.2712094244302,-14.2266041631788
4.2,0.15,2.755,38.5973271210757,-15.028127707177
4.2,0.15,2.7575,38.7421242217193,-16.1216638510124
4.2,0.15,2.76,38.4856456897682,-17.4807141136035
4.2,0.15,2.7625,37.5864748789194,-18.8751992325412
4.2,0.15,2.765,36.0231379906425,-19.8480030873856
4.2,0.15,2.7675,34.187597041642,-20.0230053489921
4.2,0.15,2.77,32.6157541119239,-19.46501393962
4.2,0.15,2.7725,31.5622449914548,-18.5445541286963
4.2,0.15,2.775,30.9776513239888,-17.5828236054799
4.2,0.15,2.7775,30.7099787686693,-16.7318017080492
4.2,0.15,2.78,30.6275833269331,-16.0284959231181
4.2,0.15,2.7825,30.6445845343268,-15.4614168164376
4.2,0.15,2.785,30.7109680270217,-15.0059569041363
4.2,0.15,2.7875,30.7990747933519,-14.6379613898491
4.2,0.15,2.79,30.8940553108494,-14.3375170325663
4.2,0.15,2.7925,30.9881646083715,-14.0892119235538
4.2,0.15,2.795,31.0775497450342,-13.8813917694797
4.2,0.15,2.7975,31.1604760949997,-13.7052927035881
4.2,0.15,2.8,31.2363512872068,-13.5543049927218
4.2,0.15,2.8025,31.3051866802526,-13.4234077753582
4.2,0.15,2.805,31.3672993580572,-13.3087520154425
4.2,0.15,2.8075,31.423147307883,-13.2073573562638
4.2,0.15,2.81,31.4732389623307,-13.1168924275397
4.2,0.15,2.8125,31.5180845536483,-13.0355151320266
4.2,0.15,2.815,31.5581710652213,-12.9617557915044
4.2,0.15,2.8175,31.5939504805385,-12.8944309552414
4.2,0.15,2.82,31.6258354551952,-12.8325792548076
4.2,0.15,2.8225,31.6541990418806,-12.7754132227054
4.2,0.15,2.825,31.6793765313354,-12.7222827652476
4.2,0.15,2.8275,31.7016682998861,-12.6726472177406
4.2,0.15,2.83,31.7213430354228,-12.6260537759504
4.2,0.15,2.8325,31.7386409946193,-12.5821207067448
4.2,0.15,2.835,31.7537771081627,-12.5405241718381
4.2,0.15,2.8375,31.7669438459309,-12.5009878059828
4.2,0.15,2.84,31.7783138085737,-12.4632744119548
4.2,0.15,2.8425,31.7880420423836,-12.4271792948606
4.2,0.15,2.845,31.7962680905476,-12.3925248753357
4.2,0.15,2.8475,31.8031178017155,-12.3591563074202
4.2,0.15,2.85,31.8087049198426,-12.3269378908991
4.2,0.15,2.8525,31.8131324795612,-12.2957501157712
4.2,0.15,2.855,31.8164940301784,-12.2654872125861
4.2,0.15,2.8575,31.8188747095246,-12.2360551097617
4.2,0.15,2.86,31.8203521867297,-12.2073697198983
4.2,0.15,2.8625,31.8209974908218,-12.1793554931764
4.2,0.15,2.865,31.8208757399636,-12.1519441883396
4.2,0.15,2.8675,31.8200467842233,-12.1250738214141
4.2,0.15,2.87,31.8185657730473,-12.098687759837
4.2,0.15,2.8725,31.8164836570627,-12.0727339355636
4.2,0.15,2.875,31.8138476324709,-12.0471641553338
4.2,0.15,2.8775,31.8107015350841,-12.0219334899094
4.2,0.15,2.88,31.8070861899861,-11.9969997269154
4.2,0.15,2.8825,31.8030397218315,-11.9723228741185
4.2,0.15,2.885,31.7985978299197,-11.9478647016472
4.2,0.15,2.8875,31.7937940313572,-11.923588312903
4.2,0.15,2.89,31.7886598748314,-11.8994577347779
4.2,0.15,2.8925,31.7832251267241,-11.8754375183432
4.2,0.15,2.895,31.7775179304583,-11.8514923414108
4.2,0.15,2.8975,31.7715649390604,-11.827586604331
4.2,0.15,2.9,31.7653914198638,-11.8036840100527
4.2,0.15,2.9025,31.7590213290224,-11.7797471188497
4.2,0.15,2.905,31.7524773519415,-11.7557368671659
4.2,0.15,2.9075,31.7457809037529,-11.7316120387351
4.2,0.15,2.91,31.7389520813894,-11.7073286744424
4.2,0.15,2.9125,31.7320095554246,-11.6828394052658
4.2,0.15,2.915,31.724970385324,-11.6580926900268
4.2,0.15,2.9175,31.7178497356693,-11.6330319365445
4.2,0.15,2.92,31.710660462652,-11.60759448113
4.2,0.15,2.9225,31.7034125288568,-11.5817103972294
4.2,0.15,2.925,31.6961121888532,-11.5553010996246
4.2,0.15,2.9275,31.6887608667412,-11.5282777063611
4.2,0.15,2.93,31.6813536171881,-11.5005391173729
4.2,0.15,2.9325,31.6738770203976,-11.4719697682731
4.2,0.15,2.935,31.666306304322,-11.4424370230059
4.2,0.15,2.9375,31.658601408102,-11.4117881854019
4.2,0.15,2.94,31.6507015909844,-11.3798471466095
4.2,0.15,2.9425,31.6425180404909,-11.3464107593206
4.2,0.15,2.945,31.6339237305202,-11.3112451688391
4.2,0.15,2.9475,31.6247395137172,-11.2740825831664
4.2,0.15,2.95,31.6147151009989,-11.2346194092393
4.2,0.15,2.9525,31.6035032099168,-11.1925174504863
4.2,0.15,2.955,31.5906248461774,-11.147411156387
4.2,0.15,2.9575,31.5754236672683,-11.0989260370241
4.2,0.15,2.96,31.5570082355436,-11.0467166849234
4.2,0.15,2.9625,31.534183897182,-10.9905377025261
4.2,0.15,2.965,31.5053832936477,-10.9303669799211
4.2,0.15,2.9675,31.4686198605514,-10.8666060933466
4.2,0.15,2.97,31.4215166908023,-10.8003802913665
4.2,0.15,2.9725,31.3615049520693,-10.7339346934332
4.2,0.15,2.975,31.2863260719326,-10.6710468954015
4.2,0.15,2.9775,31.1949533829299,-10.6172266302547
4.2,0.15,2.98,31.0888622101955,-10.5792939485902
4.2,0.15,2.9825,30.973146984854,-10.5639268785942
4.2,0.15,2.985,30.8565309053007,-10.5752782563418
4.2,0.15,2.9875,30.7495061133774,-10.6127501732876
4.2,0.15,2.99,30.6611048635053,-10.6705395798126
4.2,0.15,2.9925,30.596150023495,-10.7395670020433
